# GHz S MA R 50

1.000000000000000e-09  9.9997027862585353e-01 -1.9995741769239658e-04  9.9757864653034146e-06  6.6973006014670808e+00  9.9750888110279036e-06  6.6966751475606925e+00
                         9.9757864653491883e-06  6.6973006015874965e+00  9.9997027744632072e-01 -1.9997007770606576e-04  9.9757201113219079e-06  6.6969311247643093e+00
                         9.9750888110068395e-06  6.6966751475004767e+00  9.9757201113368784e-06  6.6969311247659435e+00  9.9997027716165265e-01 -1.9997022996035818e-04
5.000000000000000e-09  9.9997021530180918e-01 -9.9716878844879138e-04  1.1499580612427348e-05  3.0299907358901461e+01  1.1498721121706594e-05  3.0297040355113545e+01
                         1.1499580612448861e-05  3.0299907358905902e+01  9.9997021441434653e-01 -9.9723436496081726e-04  1.1499431267386016e-05  3.0298490029764441e+01
                         1.1498721121767776e-05  3.0297040354963965e+01  1.1499431267450469e-05  3.0298490029432116e+01  9.9997021416592302e-01 -9.9723743942343795e-04
1.000000000000000e-08  9.9997012025211840e-01 -1.9923331861530142e-03  1.5283202968137075e-05  4.9330545024937500e+01  1.5281982039846125e-05  4.9325110096283723e+01
                         1.5283202968137241e-05  4.9330545024782708e+01  9.9997012020319564e-01 -1.9924673974085574e-03  1.5282939585395321e-05  4.9328106492174847e+01
                         1.5281982039873542e-05  4.9325110096190187e+01  1.5282939585421423e-05  4.9328106491919087e+01  9.9997011997059204e-01 -1.9924753142597888e-03
2.500000000000000e-08  9.9996964326194926e-01 -4.9780875172160365e-03  3.0680205557876396e-05  7.0747277440364684e+01  3.0677247475456744e-05  7.0734731478218137e+01
                         3.0680205557889582e-05  7.0747277439995614e+01  9.9996964870509819e-01 -4.9784460672476685e-03  3.0679435730016076e-05  7.0741943935619460e+01
                         3.0677247475442257e-05  7.0734731478237464e+01  3.0679435730001284e-05  7.0741943935527161e+01  9.9996964838356373e-01 -4.9784669392454635e-03
5.000000000000000e-08  9.9996822876764535e-01 -9.9518445697340079e-03  5.8863104370360677e-05  7.9645031804707457e+01  5.8855863120338444e-05  7.9622786724264373e+01
                         5.8863104370341276e-05  7.9645031804761501e+01  9.9996825132090306e-01 -9.9526430074761835e-03  5.8861023911439294e-05  7.9635700279455548e+01
                         5.8855863120368334e-05  7.9622786724212887e+01  5.8861023911420293e-05  7.9635700279498579e+01  9.9996825047963644e-01 -9.9526775631915022e-03
7.500000000000001e-08  9.9996613926145217e-01 -1.4920631337934590e-02  8.7544019048535197e-05  8.2605573945142993e+01  8.7531669560613428e-05  8.2575006040575445e+01
                         8.7544019048534818e-05  8.2605573945008544e+01  9.9996618719340680e-01 -1.4921928556517720e-02  8.7540372950700642e-05  8.2592789300787373e+01
                         8.7531669560606286e-05  8.2575006040608969e+01  8.7540372950702431e-05  8.2592789300788354e+01  9.9996618547183491e-01 -1.4921965559974536e-02
1.000000000000000e-07  9.9996343591589054e-01 -1.9883800371043522e-02  1.1633204383247657e-04  8.4002332347704908e+01  1.1631401878783276e-04  8.3963798388488257e+01
                         1.1633204383249980e-04  8.4002332347660570e+01  9.9996351729529975e-01 -1.9885654014586900e-02  1.1632663402127745e-04  8.3986211136942671e+01
                         1.1631401878783245e-04  8.3963798388501345e+01  1.1632663402128052e-04  8.3986211136925377e+01  9.9996351442630671e-01 -1.9885683044357491e-02
2.500000000000000e-07  9.9993575035664251e-01 -4.9531761651728373e-02  2.8900479827472121e-04  8.5783005593666999e+01  2.8893494439321773e-04  8.5697477430615734e+01
                         2.8900479827471905e-04  8.5783005593668108e+01  9.9993620134206662e-01 -4.9538735512009713e-02  2.8898077014983799e-04  8.5746909944348488e+01
                         2.8893494439322559e-04  8.5697477430570899e+01  2.8898077014983788e-04  8.5746909944339407e+01  9.9993618813136920e-01 -4.9538549717488382e-02
5.000000000000001e-07  9.9985080962245654e-01 -9.8384272673622528e-02  5.7468463039816206e-04  8.5092392049920804e+01  5.7443029840886697e-04  8.4932648963199071e+01
                         5.7468463039816434e-04  8.5092392049921600e+01  9.9985246580600284e-01 -9.8409700896574553e-02  5.7458362803635733e-04  8.5024683620704337e+01
                         5.7443029840887391e-04  8.4932648963194325e+01  5.7458362803634877e-04  8.5024683620710121e+01  9.9985242756448489e-01 -9.8408666884828452e-02
7.500000000000000e-07  9.9972212254666049e-01 -1.4642747945755011e-01  8.5722936166653834e-04  8.3873803372756043e+01  8.5663155756721229e-04  8.3644246604135475e+01
                         8.5722936166652490e-04  8.3873803372758204e+01  9.9972563268984627e-01 -1.4648822491411650e-01  8.5697783475484899e-04  8.3776432239839920e+01
                         8.5663155756721598e-04  8.3644246604133627e+01  8.5697783475483620e-04  8.3776432239840744e+01  9.9972556369173327e-01 -1.4648577537921478e-01
9.765630000000001e-07  9.9957069293530998e-01 -1.8916484206261355e-01  1.1103372392997338e-03  8.2687944262278677e+01  1.1092588600839929e-03  8.2397777424211128e+01
                         1.1103372392997329e-03  8.2687944262276091e+01  9.9957637733686977e-01 -1.8927592064791277e-01  1.1098718667477288e-03  8.2564853403851089e+01
                         1.1092588600839955e-03  8.2397777424210418e+01  1.1098718667477260e-03  8.2564853403850705e+01  9.9957627799300186e-01 -1.8927168483698056e-01
1.953130000000000e-06  9.9858994621841735e-01 -3.6270857734315154e-01  2.1643388544063569e-03  7.7599185217286177e+01  2.1587515732962676e-03  7.7071269006541058e+01
                         2.1643388544063096e-03  7.7599185217290696e+01  9.9860893078035762e-01 -3.6329768486787217e-01  2.1618514874941451e-03  7.7375513538639979e+01
                         2.1587515732962781e-03  7.7071269006540973e+01  2.1618514874941564e-03  7.7375513538639609e+01  9.9860871830479547e-01 -3.6328030154452373e-01
3.906250000000000e-06  9.9550399874008555e-01 -6.4544304876916303e-01  4.0552644744045064e-03  6.8450313834384559e+01  4.0258349595962417e-03  6.7560588447121205e+01
                         4.0552644744045029e-03  6.8450313834383195e+01  9.9555333203983709e-01 -6.4846031297236539e-01  4.0421602728005933e-03  6.8075561953756562e+01
                         4.0258349595962296e-03  6.7560588447121177e+01  4.0421602728005664e-03  6.8075561953756846e+01  9.9555328631507445e-01 -6.4840118745253028e-01
7.812500000000000e-06  9.8796120208715954e-01 -9.5290852470117648e-01  6.8986956052399630e-03  5.4224262130413713e+01  6.7756152025581521e-03  5.3011057935685258e+01
                         6.8986956052398407e-03  5.4224262130414623e+01  9.8800893169330672e-01 -9.6397269737077429e-01  6.8445699470706389e-03  5.3721054710899111e+01
                         6.7756152025581053e-03  5.3011057935685052e+01  6.8445699470705869e-03  5.3721054710899409e+01  9.8801073174129350e-01 -9.6388568957943799e-01
1.562500000000000e-05  9.7675152929964093e-01 -1.0142048960565404e+00  9.9039586624354026e-03  3.7110338227989317e+01  9.5887142513295422e-03  3.6010812558311066e+01
                         9.9039586624353627e-03  3.7110338227989580e+01  9.7661079141590079e-01 -1.0348005962172293e+00  9.7674630079183106e-03  3.6666138901661100e+01
                         9.5887142513295387e-03  3.6010812558310562e+01  9.7674630079182777e-03  3.6666138901661085e+01  9.7661420177512193e-01 -1.0349094434559369e+00
3.125000000000000e-05  9.6773706464266174e-01 -7.7553273957349944e-01  1.1937550205706277e-02  2.2286246561995686e+01  1.1459158745525033e-02  2.1761310239578815e+01
                         1.1937550205706185e-02  2.2286246561995888e+01  9.6732545886764032e-01 -7.9280243425956409e-01  1.1732373660589429e-02  2.2081288857865541e+01
                         1.1459158745525033e-02  2.1761310239578908e+01  1.1732373660589429e-02  2.2081288857865463e+01  9.6732516951053571e-01 -7.9308753974764412e-01
6.250000000000000e-05  9.6305456304573145e-01 -4.8743158440913664e-01  1.2930826400849745e-02  1.2301199129149721e+01  1.2424894775730180e-02  1.2401270105472216e+01
                         1.2930826400849605e-02  1.2301199129149786e+01  9.6254345366388061e-01 -4.9289156170803738e-01  1.2712664506927930e-02  1.2346229506265599e+01
                         1.2424894775730258e-02  1.2401270105472195e+01  1.2712664506927986e-02  1.2346229506265573e+01  9.6253965631686100e-01 -4.9307128173211856e-01
1.250000000000000e-04  9.6094252995965157e-01 -2.7964354315488754e-01  1.3341447145736873e-02  6.4086214786081515e+00  1.2922704200877802e-02  6.8725855266339204e+00
                         1.3341447145736908e-02  6.4086214786080671e+00  9.6050493180360774e-01 -2.7620623033241731e-01  1.3157544925196534e-02  6.6040649081217779e+00
                         1.2922704200877721e-02  6.8725855266339968e+00  1.3157544925196546e-02  6.6040649081217451e+00  9.6050090305005043e-01 -2.7623440287828405e-01
2.500000000000000e-04  9.5995672304718227e-01 -1.5174510915388803e-01  1.3495152449834010e-02  3.2113658572173005e+00  1.3200362440246900e-02  3.6891455088354634e+00
                         1.3495152449834022e-02  3.2113658572172263e+00  9.5965012504492575e-01 -1.4606764196611882e-01  1.3363585536466769e-02  3.4178792088415526e+00
                         1.3200362440247011e-02  3.6891455088354346e+00  1.3363585536466650e-02  3.4178792088415482e+00  9.5964730428084721e-01 -1.4603093234608269e-01
5.000000000000000e-04  9.5947390791809295e-01 -7.9136077217053791e-02  1.3554523787795389e-02  1.5893351493030066e+00  1.3355932214570687e-02  1.9159066855840796e+00
                         1.3554523787795293e-02  1.5893351493030108e+00  9.5926975781187451e-01 -7.4841861455708147e-02  1.3465174675262731e-02  1.7334443583630754e+00
                         1.3355932214570626e-02  1.9159066855840834e+00  1.3465174675262785e-02  1.7334443583630690e+00  9.5926802041456805e-01 -7.4802059521346970e-02
1.000000000000000e-03  9.5922974276978812e-01 -4.0977866813249532e-02  1.3581354810190236e-02  7.9406206747922770e-01  1.3441046154642167e-02  9.9108638029864371e-01
                         1.3581354810190242e-02  7.9406206747922314e-01  9.5908665492158829e-01 -3.8284971249275095e-02  1.3517979442459175e-02  8.8207643507219524e-01
                         1.3441046154642158e-02  9.9108638029864893e-01  1.3517979442459194e-02  8.8207643507218647e-01  9.5908556990331506e-01 -3.8256825664815107e-02
