# GHz S MA R 50

1.000000000000000e-09  9.9992031934302905e-01 -5.3642417757855275e-04  2.6743470523066393e-05  6.7010739389845213e+00  2.6742128814550321e-05  6.7006806832235570e+00
                         2.6743470523067697e-05  6.7010739389963421e+00  9.9992031616828136e-01 -5.3644986957235665e-04  2.6744003284874299e-05  6.7008257025591771e+00
                         2.6742128814566130e-05  6.7006806831959542e+00  2.6744003284853424e-05  6.7008257025614784e+00  9.9992031584460106e-01 -5.3645015618247727e-04
5.000000000000000e-09  9.9992013146740477e-01 -2.6743327900824849e-03  3.0836158179252914e-05  3.0300832360611597e+01  3.0834532867493094e-05  3.0299008129576166e+01
                         3.0836158179161983e-05  3.0300832360690581e+01  9.9992012897196170e-01 -2.6744730273458406e-03  3.0836546077509648e-05  3.0300123437469150e+01
                         3.0834532867585421e-05  3.0299008129464372e+01  3.0836546077456007e-05  3.0300123437395243e+01  9.9992012871324509e-01 -2.6744784261724390e-03
1.000000000000000e-08  9.9991984986763371e-01 -5.3427083822206994e-03  4.0986740267250795e-05  4.9317324910437328e+01  4.0984452094706384e-05  4.9313814086501083e+01
                         4.0986740267167576e-05  4.9317324910367468e+01  9.9991984905129871e-01 -5.3430013072027225e-03  4.0987098396946765e-05  4.9316347079806533e+01
                         4.0984452094653109e-05  4.9313814086489444e+01  4.0987098396912416e-05  4.9316347079923929e+01  9.9991984885737106e-01 -5.3430150213661758e-03
2.500000000000000e-08  9.9991843527376933e-01 -1.3348708746525908e-02  8.2281072866721507e-05  7.0700997125866834e+01  8.2275375642573993e-05  7.0692797542248826e+01
                         8.2281072866716466e-05  7.0700997126034167e+01  9.9991844491723869e-01 -1.3349504124548668e-02  8.2281414544824500e-05  7.0699068572133910e+01
                         8.2275375642599404e-05  7.0692797542118484e+01  8.2281414544822548e-05  7.0699068572115692e+01  9.9991844502264737e-01 -1.3349541935931172e-02
5.000000000000000e-08  9.9991423406189539e-01 -2.6684819894509569e-02  1.5785759363493482e-04  7.9557360851687434e+01  1.5784306541373437e-04  7.9542675752587769e+01
                         1.5785759363495596e-04  7.9557360851688742e+01  9.9991427622191131e-01 -2.6686604560448492e-02  1.5785727292219902e-04  7.9553933149911401e+01
                         1.5784306541374488e-04  7.9542675752531210e+01  1.5785727292220373e-04  7.9553933149931822e+01  9.9991427723819237e-01 -2.6686689403421417e-02
7.500000000000001e-08  9.9990802681357560e-01 -4.0006179102722243e-02  2.3476025617667496e-04  8.2482504266735688e+01  2.3473520412719108e-04  8.2462074387113560e+01
                         2.3476025617670849e-04  8.2482504266700204e+01  9.9990811810702707e-01 -4.0009063356052907e-02  2.3475879644468337e-04  8.2477699270921747e+01
                         2.3473520412719756e-04  8.2462074387101751e+01  2.3475879644468500e-04  8.2477699270924504e+01  9.9990812036256815e-01 -4.0009209169545985e-02
1.000000000000000e-07  9.9990000264841972e-01 -5.3310602424075468e-02  3.1193940812636464e-04  8.3846937798002429e+01  3.1190303401442435e-04  8.3820898176886729e+01
                         3.1193940812637938e-04  8.3846937797977247e+01  9.9990015974556989e-01 -5.3314671235502806e-02  3.1193650041638521e-04  8.3840759658752376e+01
                         3.1190303401444083e-04  8.3820898176869235e+01  3.1193650041638494e-04  8.3840759658751651e+01  9.9990016340513088e-01 -5.3314890987954895e-02
2.500000000000000e-07  9.9981830614160105e-01 -1.3273402644517704e-01  7.7458437912068497e-04  8.5465052136867826e+01  7.7445486758698874e-04  8.5405131081574226e+01
                         7.7458437912068681e-04  8.5465052136865950e+01  9.9981921185806599e-01 -1.3274814608409866e-01  7.7456250784983121e-04  8.5450371425355939e+01
                         7.7445486758698971e-04  8.5405131081571085e+01  7.7456250784983176e-04  8.5450371425357346e+01  9.9981922432231141e-01 -1.3274897556133891e-01
5.000000000000001e-07  9.9957058084065864e-01 -2.6336853893690193e-01  1.5387595005208815e-03  8.4559333925583900e+01  1.5383150059228206e-03  8.4444426483750334e+01
                         1.5387595005208856e-03  8.4559333925587708e+01  9.9957399592263363e-01 -2.6341818511439141e-01  1.5386480848500511e-03  8.4530754978568396e+01
                         1.5383150059228136e-03  8.4444426483748899e+01  1.5386480848500461e-03  8.4530754978568012e+01  9.9957401896142195e-01 -2.6342028757661440e-01
7.500000000000000e-07  9.9919933688587514e-01 -3.9151370374334915e-01  2.2928147258096505e-03  8.3159477961973195e+01  2.2917787726752081e-03  8.2991849496986404e+01
                         2.2928147258096778e-03  8.3159477961973110e+01  9.9920667649491057e-01 -3.9163280231643033e-01  2.2925227127214040e-03  8.3117547962051262e+01
                         2.2917787726752146e-03  8.2991849496982297e+01  2.2925227127214135e-03  8.3117547962051461e+01  9.9920670261941757e-01 -3.9163614441102451e-01
9.765630000000001e-07  9.9876607785519500e-01 -5.0520840550508384e-01  2.9666827168400734e-03  8.1827142488582496e+01  2.9648067795089734e-03  8.1613275083946917e+01
                         2.9666827168400496e-03  8.1827142488580932e+01  9.9877806022158810e-01 -5.0542822738229320e-01  2.9661323719921166e-03  8.1773470869079972e+01
                         2.9648067795089569e-03  8.1613275083948579e+01  2.9661323719921287e-03  8.1773470869077457e+01  9.9877808290767345e-01 -5.0543242181073544e-01
1.953130000000000e-06  9.9600840603870477e-01 -9.6353681746723685e-01  5.7531531831943950e-03  7.6228848342398180e+01  5.7431466919658355e-03  7.5830955332180054e+01
                         5.7531531831944132e-03  7.6228848342398209e+01  9.9604910709043493e-01 -9.6473878497044641e-01  5.7501556237814083e-03  7.6128279211504108e+01
                         5.7431466919658451e-03  7.5830955332180025e+01  5.7501556237813979e-03  7.6128279211503468e+01  9.9604909446647061e-01 -9.6474040118471593e-01
3.906250000000000e-06  9.8760799128010046e-01 -1.6960262635908279e+00  1.0652549752839566e-02  6.6453726575782198e+01  1.0598434577520759e-02  6.5767843726230495e+01
                         1.0652549752839561e-02  6.6453726575782198e+01  9.8771548359281069e-01 -1.7023096518450140e+00  1.0636792513555015e-02  6.6279950260380147e+01
                         1.0598434577520778e-02  6.5767843726230339e+01  1.0636792513555014e-02  6.6279950260380602e+01  9.8771594207327229e-01 -1.7022768074553742e+00
7.812500000000000e-06  9.6801841529561228e-01 -2.4665553251567180e+00  1.7738552106517175e-02  5.1904212613397469e+01  1.7510894062807151e-02  5.0932112049119532e+01
                         1.7738552106517085e-02  5.1904212613397632e+01  9.6813656474211418e-01 -2.4899237026181251e+00  1.7673979667507927e-02  5.1659515079983812e+01
                         1.7510894062807092e-02  5.0932112049119709e+01  1.7673979667507930e-02  5.1659515079983770e+01  9.6814094572421394e-01 -2.4899327692062831e+00
1.562500000000000e-05  9.4014851264795507e-01 -2.6135352348336451e+00  2.4920229578237137e-02  3.5329590505254544e+01  2.4330423724113273e-02  3.4346454457162885e+01
                         2.4920229578237089e-02  3.5329590505254622e+01  9.3991870820952450e-01 -2.6596276706095328e+00  2.4755181159132320e-02  3.5087270196098878e+01
                         2.4330423724113304e-02  3.4346454457162992e+01  2.4755181159132392e-02  3.5087270196098828e+01  9.3992509503506183e-01 -2.6602931907706413e+00
3.125000000000000e-05  9.1778443847500546e-01 -2.0337800179690229e+00  2.9819715238367787e-02  2.1517616772914756e+01  2.8872766315244235e-02  2.0851093608743238e+01
                         2.9819715238367742e-02  2.1517616772914863e+01  9.1698767328298114e-01 -2.0800959394298491e+00  2.9555702756765431e-02  2.1356381970890116e+01
                         2.8872766315244235e-02  2.0851093608743280e+01  2.9555702756765338e-02  2.1356381970890094e+01  9.1698080124141867e-01 -2.0813512443925637e+00
6.250000000000000e-05  9.0550737861659392e-01 -1.3147436081812260e+00  3.2473653712701542e-02  1.2249588893247102e+01  3.1358786768704364e-02  1.2019687038073052e+01
                         3.2473653712701521e-02  1.2249588893247138e+01  9.0437616677440968e-01 -1.3404294111005881e+00  3.2155785501003294e-02  1.2186903544817417e+01
                         3.1358786768704190e-02  1.2019687038073128e+01  3.2155785501003328e-02  1.2186903544817435e+01  9.0435540415456095e-01 -1.3413675981609625e+00
1.250000000000000e-04  8.9949475213395036e-01 -7.7474961803502362e-01  3.3809207508810772e-02  6.6166621403136094e+00  3.2740496418948807e-02  6.7621166322683823e+00
                         3.3809207508810765e-02  6.6166621403136352e+00  8.9836055225845168e-01 -7.7800658416292556e-01  3.3484661852782892e-02  6.6416225013040000e+00
                         3.2740496418948779e-02  6.7621166322683743e+00  3.3484661852782864e-02  6.6416225013039982e+00  8.9833610504373185e-01 -7.7832702896951067e-01
2.500000000000000e-04  8.9646208856754261e-01 -4.3208592090992415e-01  3.4445860450076471e-02  3.4014345057529467e+00  3.3568396608729692e-02  3.7190899532755277e+00
                         3.4445860450076374e-02  3.4014345057529392e+00  8.9553066879078014e-01 -4.2322670660379003e-01  3.4158287702143582e-02  3.4814782480708848e+00
                         3.3568396608729727e-02  3.7190899532755237e+00  3.4158287702143686e-02  3.4814782480708883e+00  8.9550935545477695e-01 -4.2316191097467004e-01
5.000000000000000e-04  8.9486121820723230e-01 -2.3184883138431056e-01  3.4737237261741473e-02  1.6968040525264179e+00  3.4069668160768965e-02  1.9913837557560736e+00
                         3.4737237261741431e-02  1.6968040525264136e+00  8.9415954242352447e-01 -2.2148108673464545e-01  3.4505801570695813e-02  1.7827985184876090e+00
                         3.4069668160768930e-02  1.9913837557560765e+00  3.4505801570695806e-02  1.7827985184876067e+00  8.9414285289289652e-01 -2.2130635659311071e-01
1.000000000000000e-03  8.9400422538492541e-01 -1.2333600678725976e-01  3.4874364139079170e-02  8.4921329566849557e-01  3.4360370612580092e-02  1.0616549833917313e+00
                         3.4874364139079093e-02  8.4921329566849768e-01  8.9346817742261109e-01 -1.1534966380404378e-01  3.4690026950043716e-02  9.1669130101665164e-01
                         3.4360370612580002e-02  1.0616549833917326e+00  3.4690026950043855e-02  9.1669130101664698e-01  8.9345507687974601e-01 -1.1518994257560002e-01
