# GHz S MA R 50

1.000000000000000e-09  9.9992031716562002e-01 -5.3644191119337631e-04  2.6744555672617769e-05  6.7011784234016849e+00  2.6742438133847740e-05  6.7006948301049931e+00
                         2.6744555672781775e-05  6.7011784233358993e+00  9.9992031641991441e-01 -5.3645871848974184e-04  2.6743437455379675e-05  6.7010546251060994e+00
                         2.6742438133895242e-05  6.7006948300890397e+00  2.6743437455373573e-05  6.7010546251119010e+00  9.9992031659655844e-01 -5.3645702697280567e-04
5.000000000000000e-09  9.9992012980588940e-01 -2.6744308331301779e-03  3.0837339820505573e-05  3.0301546342000126e+01  3.0834864917692944e-05  3.0299148364950373e+01
                         3.0837339820467077e-05  3.0301546342064576e+01  9.9992012940646502e-01 -2.6745112294719480e-03  3.0836105693145494e-05  3.0300784617289374e+01
                         3.0834864917618846e-05  3.0299148364917489e+01  3.0836105693141902e-05  3.0300784617332191e+01  9.9992012956016074e-01 -2.6745027643319402e-03
1.000000000000000e-08  9.9991984947552359e-01 -5.3429141813278120e-03  4.0988295329399859e-05  4.9318882165113756e+01  4.0984900614438189e-05  4.9314150395778974e+01
                         4.0988295329416007e-05  4.9318882165221098e+01  9.9991985031068464e-01 -5.3430745991295374e-03  4.0986664136762766e-05  4.9317243696741301e+01
                         4.0984900614408712e-05  4.9314150395914893e+01  4.0986664136769820e-05  4.9317243696789291e+01  9.9991985039140152e-01 -5.3430576420378257e-03
2.500000000000000e-08  9.9991844284108000e-01 -1.3349269646405901e-02  8.2284327212575747e-05  7.0704835710422500e+01  8.2276609242855990e-05  7.0693592505504796e+01
                         8.2284327212613206e-05  7.0704835710491068e+01  9.9991845218847342e-01 -1.3349701399472572e-02  8.2280727007522737e-05  7.0700805368000545e+01
                         8.2276609242855177e-05  7.0693592505556495e+01  8.2280727007495131e-05  7.0700805367986675e+01  9.9991845175118921e-01 -1.3349657886305691e-02
5.000000000000000e-08  9.9991426655574167e-01 -2.6686077431078287e-02  1.5786368771805704e-04  7.9564527702949093e+01  1.5784694063548588e-04  7.9543882978277196e+01
                         1.5786368771802183e-04  7.9564527702973109e+01  9.9991430370638590e-01 -2.6687037952408406e-02  1.5785576904435160e-04  7.9557162780009961e+01
                         1.5784694063548165e-04  7.9543882978305646e+01  1.5785576904435951e-04  7.9557162779987507e+01  9.9991430151574878e-01 -2.6686939841297868e-02
7.500000000000001e-08  9.9990809719059903e-01 -4.0008195220794407e-02  2.3476769273568908e-04  8.2492826460875918e+01  2.3474329149132412e-04  8.2463481179824512e+01
                         2.3476769273572437e-04  8.2492826460835403e+01  9.9990817781151942e-01 -4.0009689816667776e-02  2.3475544674163469e-04  8.2482450088133746e+01
                         2.3474329149134805e-04  8.2463481179810614e+01  2.3475544674163553e-04  8.2482450088130804e+01  9.9990817297467594e-01 -4.0009519068157667e-02
1.000000000000000e-07  9.9990012402233608e-01 -5.3313412976347931e-02  3.1194604296255594e-04  8.3860459469556673e+01  3.1191689539954479e-04  8.3822411192626632e+01
                         3.1194604296252455e-04  8.3860459469568156e+01  9.9990026422339751e-01 -5.3315415764132255e-02  3.1192997089334843e-04  8.3847115136482884e+01
                         3.1191689539955016e-04  8.3822411192609607e+01  3.1192997089335130e-04  8.3847115136481335e+01  9.9990025603218435e-01 -5.3315153158949892e-02
2.500000000000000e-07  9.9981901678768192e-01 -1.3274319644176216e-01  7.7454600675852417e-04  8.5499165304500053e+01  7.7453473537303895e-04  8.5406483466454901e+01
                         7.7454600675851842e-04  8.5499165304506278e+01  9.9981986661021161e-01 -1.3274888865832374e-01  7.7451301097860431e-04  8.5467598682156307e+01
                         7.7453473537304708e-04  8.5406483466452030e+01  7.7451301097860182e-04  8.5467598682157075e+01  9.9981982816434645e-01 -1.3274768058932035e-01
5.000000000000001e-07  9.9957330094446772e-01 -2.6340084513166412e-01  1.5385740360783252e-03  8.4628494002707640e+01  1.5385970909001475e-03  8.4444687452145530e+01
                         1.5385740360783222e-03  8.4628494002711875e+01  9.9957661489548888e-01 -2.6342450400695033e-01  1.5384852239129949e-03  8.4567001283541231e+01
                         1.5385970909001585e-03  8.4444687452139334e+01  1.5384852239129819e-03  8.4567001283546944e+01  9.9957650256449038e-01 -2.6342020569379687e-01
7.500000000000000e-07  9.9920522954622171e-01 -3.9159395836981936e-01  2.2924942605653201e-03  8.3262261044461113e+01  2.2923472975400977e-03  8.2991156533034911e+01
                         2.2924942605653076e-03  8.3262261044457645e+01  9.9921245000740277e-01 -3.9166299795972104e-01  2.2922533391210283e-03  8.3172214625717771e+01
                         2.2923472975401042e-03  8.2991156533034484e+01  2.2922533391210318e-03  8.3172214625717658e+01  9.9921224894423621e-01 -3.9165357005892704e-01
9.765630000000001e-07  9.9877574347929976e-01 -5.0536075995475149e-01  2.9663125308237574e-03  8.1959110999422009e+01  2.9656964156598636e-03  8.1611957378230500e+01
                         2.9663125308237682e-03  8.1959110999425221e+01  9.9878761094469526e-01 -5.0550392367546337e-01  2.9658079682891789e-03  8.1844210412500047e+01
                         2.9656964156598428e-03  8.1611957378230443e+01  2.9658079682891672e-03  8.1844210412501610e+01  9.9878732650976310e-01 -5.0548794710923717e-01
1.953130000000000e-06  9.9604164654677230e-01 -9.6442773183589292e-01  5.7543177433803010e-03  7.6475127835800578e+01  5.7459876278655470e-03  7.5828214794952288e+01
                         5.7543177433802654e-03  7.6475127835801146e+01  9.9608253532729696e-01 -9.6539526971230882e-01  5.7505958176828553e-03  7.6262457316673505e+01
                         5.7459876278655470e-03  7.5828214794951691e+01  5.7505958176828275e-03  7.6262457316673121e+01  9.9608204106674203e-01 -9.6533006191714277e-01
3.906250000000000e-06  9.8769746688472937e-01 -1.7008970471124587e+00  1.0670840784446878e-02  6.6876728306643187e+01  1.0606947768989176e-02  6.5762895133711552e+01
                         1.0670840784446854e-02  6.6876728306643813e+01  9.8780775120425968e-01 -1.7065103085106372e+00  1.0646813493833767e-02  6.6513123355113436e+01
                         1.0606947768989197e-02  6.5762895133711481e+01  1.0646813493833781e-02  6.6513123355113095e+01  9.8780885807322638e-01 -1.7062929533108901e+00
7.812500000000000e-06  9.6812373548877362e-01 -2.4851954395300822e+00  1.7841698939064229e-02  5.2498611447910946e+01  1.7531241095906661e-02  5.0922012503626632e+01
                         1.7841698939064166e-02  5.2498611447911159e+01  9.6825605784190849e-01 -2.5070712964847588e+00  1.7732261685761520e-02  5.1989303285253222e+01
                         1.7531241095906643e-02  5.0922012503626668e+01  1.7732261685761506e-02  5.1989303285253442e+01  9.6826733473189941e-01 -2.5068924196327904e+00
1.562500000000000e-05  9.3997833787277973e-01 -2.6509564740470362e+00  2.5212426719856070e-02  3.5907370146333037e+01  2.4364711630011891e-02  3.4342105071511178e+01
                         2.5212426719856074e-02  3.5907370146332966e+01  9.3978516031825898e-01 -2.6945968488474712e+00  2.4921533336360890e-02  3.5405702495373191e+01
                         2.4364711630011946e-02  3.4342105071510787e+01  2.4921533336360876e-02  3.5405702495373141e+01  9.3980255062246276e-01 -2.6958196324789645e+00
3.125000000000000e-05  9.1715330593378841e-01 -2.0713947280981158e+00  3.0273834807764081e-02  2.1848296372272785e+01  2.8931302795915104e-02  2.0883873462372698e+01
                         3.0273834807764140e-02  2.1848296372272873e+01  9.1643050739806542e-01 -2.1137902102180188e+00  2.9814016647144316e-02  2.1531902626698681e+01
                         2.8931302795915111e-02  2.0883873462372680e+01  2.9814016647144285e-02  2.1531902626698749e+01  9.1642120745752820e-01 -2.1162590610899006e+00
6.250000000000000e-05  9.0461465040970335e-01 -1.3349715296070406e+00  3.2928596461129479e-02  1.2287401334921617e+01  3.1469918039113948e-02  1.2074991613000877e+01
                         3.2928596461129403e-02  1.2287401334921688e+01  9.0362724418929508e-01 -1.3560422546083744e+00  3.2415939019763522e-02  1.2202551279960801e+01
                         3.1469918039113962e-02  1.2074991613000874e+01  3.2415939019763612e-02  1.2202551279960781e+01  9.0359133454512930e-01 -1.3577661816636275e+00
1.250000000000000e-04  8.9861930833407300e-01 -7.7675923772772082e-01  3.4140693227845922e-02  6.4932544628335167e+00  3.2899296571838252e-02  6.7784136373413908e+00
                         3.4140693227846172e-02  6.4932544628334785e+00  8.9769090456702416e-01 -7.7766292557573025e-01  3.3683746821793252e-02  6.5760607036796364e+00
                         3.2899296571838307e-02  6.7784136373413997e+00  3.3683746821793190e-02  6.5760607036796443e+00  8.9765132134802839e-01 -7.7811245637293025e-01
2.500000000000000e-04  8.9575927710077463e-01 -4.2490880354005617e-01  3.4647415342205216e-02  3.2680553200477984e+00  3.3729276027254902e-02  3.6845128672538396e+00
                         3.4647415342205251e-02  3.2680553200477718e+00  8.9503714094187681e-01 -4.1674845200748006e-01  3.4293825155383512e-02  3.4092854646297903e+00
                         3.3729276027254951e-02  3.6845128672538396e+00  3.4293825155383519e-02  3.4092854646297770e+00  8.9500602504623872e-01 -4.1654238110278036e-01
5.000000000000000e-04  8.9433968858569535e-01 -2.2384516073063290e-01  3.4858140916437207e-02  1.6102170201817632e+00  3.4204080877192095e-02  1.9430141746098784e+00
                         3.4858140916437165e-02  1.6102170201817734e+00  8.9381324083878200e-01 -2.1537940702773592e-01  3.4598461317031586e-02  1.7313864797963046e+00
                         3.4204080877192053e-02  1.9430141746098804e+00  3.4598461317031662e-02  1.7313864797963012e+00  8.9379089586871785e-01 -2.1506612400309702e-01
1.000000000000000e-03  8.9360930099878433e-01 -1.1729716196313240e-01  3.4953430272979917e-02  8.0009424613790792e-01  3.4468586822454038e-02  1.0217616199842863e+00
                         3.4953430272979931e-02  8.0009424613790581e-01  8.9321439665247826e-01 -1.1108135559601734e-01  3.4757400727689063e-02  8.8424888095898657e-01
                         3.4468586822454149e-02  1.0217616199842892e+00  3.4757400727689146e-02  8.8424888095898790e-01  8.9319784318873052e-01 -1.1083561890469915e-01
