!Generated from: BroadbandSPICE
! 1
! 2
! 3
!
!BroadbandSPICE Version: 17.1.4.06301.98715   004
!Computer Host Name: s2424
!
!TouchstoneFormatFlag = 1
!
#	Hz	S	RI	R	50
1	0.999880198776751	-3.54853500004652e-06	9.90578940806251e-06	1.17503271248868e-06	9.9052776393934e-06	1.2009683857527e-06
			9.90580930962728e-06	1.18800727931876e-06	0.999880198789471	-3.49890453456288e-06	9.90534242617178e-06	1.18542084289617e-06
			9.90530668231425e-06	1.21856528078835e-06	9.90533942039733e-06	1.18343545014281e-06	0.999880199210144	-3.50126239015767e-06
5	0.999880187199383	-1.77426573170639e-05	9.90908180309273e-06	5.8751604103174e-06	9.90918306959833e-06	6.00483710622902e-06
			9.90957932564714e-06	5.94003082476782e-06	0.999880189018596	-1.74945134202445e-05	9.9089077125504e-06	5.92710024803117e-06
			9.90990915039104e-06	6.09281799929359e-06	9.90883255895351e-06	5.91717362377258e-06	0.999880189319731	-1.75063020476065e-05
10	0.99988015102071	-3.5485204118215e-05	9.91937047547901e-06	1.17503011200996e-05	9.92138742248599e-06	1.20096440721536e-05
			9.9213604380765e-06	1.18800268268322e-05	0.999880158484792	-3.49889690126586e-05	9.92004914168731e-06	1.18541757061634e-05
			9.92429155862069e-06	1.21855834715242e-05	9.91974854167715e-06	1.18343245794722e-05	0.999880158412401	-3.50125422012708e-05
25	0.999879897795559	-8.87110766796773e-05	9.99138854869928e-06	2.93754080676434e-05	1.00068129509356e-05	3.00235827819157e-05
			1.00038202672306e-05	2.96994577979395e-05	0.999879944755825	-8.74714106222296e-05	9.99803529424213e-06	2.96350054858356e-05
			1.00249555010801e-05	3.04630396660032e-05	9.99615722783488e-06	2.95854147904079e-05	0.999879942070101	-8.75302724593234e-05
50	0.999878993784804	-0.000177408353593619	1.02485583482938e-05	5.87483545237323e-05	1.03118335658507e-05	6.00434000555266e-05
			1.02982060933635e-05	5.93945673314319e-05	0.999879181547499	-0.000174935595536532	1.02765022771175e-05	5.92669137928296e-05
			1.03842852769379e-05	6.09195209709481e-05	1.02689998001566e-05	5.91679972499832e-05	0.999879169547655	-0.000175052811750511
75	0.999877488363833	-0.000266078092160622	1.06770442367034e-05	8.81163817326669e-05	1.0819956561884e-05	9.00556947580389e-05
			1.07884557471148e-05	8.90809993416499e-05	0.999877909913158	-0.000262385340566812	1.07404232039376e-05	8.88926342270018e-05
			1.09825298214069e-05	9.1362916811318e-05	1.07235792716365e-05	8.87449199516898e-05	0.999877882456337	-0.000262559899579246
100	0.999875383417469	-0.000354706675461653	1.12766510021196e-05	0.000117477039990576	1.15308159552591e-05	0.000120056726666492
			1.14739824381115e-05	0.000118754462361513	0.999876130420785	-0.000349813454542163	1.13895128185295e-05	0.000118509089024947
			1.18187369408957e-05	0.000121786762236821	1.13596589817379e-05	0.000118313365251063	0.999876081463437	-0.000350043847309544
250	0.999850358560053	-0.000884881078116339	1.84473071992899e-05	0.000293351029452395	2.00150719970784e-05	0.000299621121017977
			1.9627293037101e-05	0.000296291798699695	0.999854848163536	-0.000873530898316956	1.91426825184964e-05	0.000295844089997447
			2.17347927430802e-05	0.000303572416209454	1.8962768406447e-05	0.000295390654629276	0.999854553565664	-0.000874038380531246
500	0.99976418552714	-0.00175732242001428	4.37009841590518e-05	0.000584334198143976	4.96571746954159e-05	0.000595674051130236
			4.77492339196403e-05	0.000588657815140047	0.999779875576827	-0.00174010801627918	4.63184632486686e-05	0.000588742546873688
			5.55346682101897e-05	0.00060128111597615	4.56858715032447e-05	0.000588064577064695	0.999778872727334	-0.00174069129276808
750	0.999629585686574	-0.00260919694407204	8.4663241959099e-05	0.00087092026267505	9.70183165722345e-05	0.000885288583813803
			9.18075776099869e-05	0.000874512120737482	0.999658202950021	-0.00259375986624097	9.00139912933771e-05	0.000876286133077913
			0.000107333153737241	0.000889463760297337	8.88623859591122e-05	0.000875722292883319	0.999656491708348	-0.00259380494424653
976.563	0.999472792722618	-0.00336089591525129	0.000134211802189841	0.00112557932297402	0.000153276274928782	0.00114065015361538
			0.000143309231265237	0.00112710102833481	0.999510927425709	-0.00335248739583075	0.000142333422944622	0.0011308942460751
			0.000166332530579502	0.00114150325354947	0.000140830789843329	0.0011306920669358	0.999508913810922	-0.00335162109279326
1953.13	0.998504247842193	-0.00639050113760071	0.000458551574138823	0.00215525695875532	0.000503920008476154	0.0021557790179884
			0.000464064642735604	0.00214772571858407	0.998544921429226	-0.00642180225658658	0.000476448260151866	0.00215341542398511
			0.000511384666920777	0.00214216918700599	0.000475777929006644	0.00215499811619703	0.998546549617479	-0.00641801394588086
3906.25	0.995467147913515	-0.0114073548630746	0.00148256250798267	0.00384391587630555	0.00154679268194798	0.00378883643554221
			0.00147821761675177	0.00384354711392836	0.995486628540537	-0.0114546625208594	0.00150663576868847	0.00382024307052501
			0.00153608804462097	0.00378233889019823	0.00150801422608009	0.00381946718287373	0.995491969907997	-0.0114597049470901
7812.5	0.987726832694278	-0.0168381753674143	0.00406832077708857	0.00569397313924893	0.00410568591415808	0.00553413562725987
			0.00407630608037714	0.00569786184805792	0.987765517071035	-0.0169444587750184	0.00408254696809998	0.00562674350289877
			0.0041038594365401	0.00554281063085459	0.00407963976974963	0.00562605726962678	0.987757159182345	-0.0169482972787907
15625	0.976428064729957	-0.0176753204203401	0.0079108352178565	0.00604186882847951	0.00780584518497657	0.0057693598893319
			0.0079125709073065	0.00603066462749731	0.976352039212828	-0.0179196300518075	0.00786323086289024	0.00592739076254461
			0.00781165170933762	0.0057672385303555	0.00786407233756364	0.00593041890327709	0.976354901778449	-0.0179144372184046
31250	0.967362247076141	-0.0136248323856552	0.011068577770882	0.00465911131891693	0.0107329986055439	0.0044162243139437
			0.0110597679123395	0.00466183301491895	0.967067321055242	-0.0138251651934254	0.0109268254251944	0.0045600487572991
			0.0107301889461208	0.00441469423122963	0.0109284522712631	0.00455845462726718	0.9670682357991	-0.013835370398768
62500	0.962610505306623	-0.00853215129323765	0.0126984847567509	0.00283527273445764	0.0122482545975525	0.00278405787349635
			0.0127034196977512	0.00284113483332904	0.962244171718646	-0.00857083878896847	0.0125112880720214	0.00281261550572299
			0.0122491452105698	0.00278548769538144	0.0125097971548102	0.00281179712728783	0.962232373303986	-0.00857567951412794
125000	0.960680887751146	-0.0049198855258633	0.0132704154732352	0.00153158257915058	0.0129018490516203	0.00164523439468278
			0.0132742191636494	0.00152727994473448	0.960370280408584	-0.00483972856524832	0.0131131006398137	0.00157539604587706
			0.0129020855021819	0.00164424224733367	0.0131126539927782	0.0015764748062172	0.960362246913745	-0.00483583184647032
250000	0.959828587846419	-0.00273163328032675	0.01345189677432	0.000801379527701258	0.0132169882330773	0.000925638012617862
			0.0134491666601749	0.000799766103998907	0.959617884707048	-0.00262883475555036	0.0133481805295667	0.000853397130806459
			0.0132166800723639	0.000925844195884957	0.0133488168679786	0.000853534645570811	0.959614717851072	-0.00262717597805419
500000	0.959497874443456	-0.00143021792705016	0.0135135179368006	0.000411180205091766	0.0133363522530129	0.000484029914868927
			0.0135127116758404	0.000413271671796958	0.959343038668028	-0.00136330915673916	0.0134361487321643	0.000443558505108099
			0.0133365415379888	0.00048413045269656	0.0134362447184731	0.000443080407937293	0.959339062764333	-0.00136387693901735
1000000	0.959400661270799	-0.000724842470817007	0.0135321340678283	0.000207505402996059	0.0133699214262259	0.000244873749464621
			0.0135334836430801	0.000209350483781855	0.959263185390789	-0.000689178602804826	0.0134624872023235	0.000224539877690021
			0.0133700438674507	0.000244824235821059	0.0134621766528571	0.000224170303861444	0.959258267859287	-0.00068980792565133
