# GHz S MA R 50

1.000000000000000e-09  9.9997027720816856e-01 -1.9996744070878967e-04  9.9760209459608411e-06  6.6972127882753609e+00  9.9756110500866895e-06  6.6966224101037088e+00
                         9.9760209459655082e-06  6.6972127883155324e+00  9.9997027740987210e-01 -1.9997253524449884e-04  9.9756248986391026e-06  6.6970101617271460e+00
                         9.9756110501018344e-06  6.6966224099745597e+00  9.9756248986656808e-06  6.6970101617407520e+00  9.9997027677742290e-01 -1.9997414771205703e-04
5.000000000000000e-09  9.9997021418493992e-01 -9.9722559598116570e-04  1.1499787941304686e-05  3.0299862219946785e+01  1.1499231566725001e-05  3.0297389398000572e+01
                         1.1499787941329389e-05  3.0299862220066146e+01  9.9997021446029322e-01 -9.9724618817366114e-04  1.1499330355412416e-05  3.0298838098886041e+01
                         1.1499231566671675e-05  3.0297389398169617e+01  1.1499330355351903e-05  3.0298838099066170e+01  9.9997021391804453e-01 -9.9725910419779223e-04
1.000000000000000e-08  9.9997011982538009e-01 -1.9924528815398199e-03  1.5283436847992316e-05  4.9330795815759430e+01  1.5282616967517142e-05  4.9326297688001901e+01
                         1.5283436847870577e-05  4.9330795815633550e+01  9.9997012052112422e-01 -1.9924912060819140e-03  1.5282816659634174e-05  4.9328752340224014e+01
                         1.5282616967594489e-05  4.9326297688218119e+01  1.5282816659641425e-05  4.9328752340498454e+01  9.9997012007184172e-01 -1.9925207697975562e-03
2.500000000000000e-08  9.9996964705343561e-01 -4.9784079943964903e-03  3.0680624557063833e-05  7.0748253725583069e+01  3.0678639862091738e-05  7.0737964849415178e+01
                         3.0680624557049623e-05  7.0748253725814266e+01  9.9996965082196643e-01 -4.9785106623924475e-03  3.0679227522624780e-05  7.0743388848413559e+01
                         3.0678639862088065e-05  7.0737964849138720e+01  3.0679227522617692e-05  7.0743388848307404e+01  9.9996965068608212e-01 -4.9785889312589076e-03
5.000000000000000e-08  9.9996824543865703e-01 -9.9525462197579354e-03  5.8863721677282728e-05  7.9647046912779132e+01  5.8859171832340823e-05  7.9628448628766535e+01
                         5.8863721677252539e-05  7.9647046912812201e+01  9.9996825914961718e-01 -9.9527774512245398e-03  5.8860547453068713e-05  7.9638304109967876e+01
                         5.8859171832352919e-05  7.9628448628521227e+01  5.8860547453076567e-05  7.9638304109901398e+01  9.9996825971433034e-01 -9.9529352815138153e-03
7.500000000000001e-08  9.9996617490051409e-01 -1.4921755200084612e-02  8.7544432510419502e-05  8.2608656729487038e+01  8.7537482357815446e-05  8.2582553735228359e+01
                         8.7544432510413579e-05  8.2608656729486725e+01  9.9996620391044322e-01 -1.4922112601640544e-02  8.7539287944846437e-05  8.2596537987436150e+01
                         8.7537482357806867e-05  8.2582553735243337e+01  8.7539287944870655e-05  8.2596537987334486e+01  9.9996620534917402e-01 -1.4922350264606752e-02
1.000000000000000e-07  9.9996349645047500e-01 -1.9885385427280550e-02  1.1633174129641997e-04  8.4006551092556649e+01  1.1632287875138771e-04  8.3973028043892711e+01
                         1.1633174129642227e-04  8.4006551092553863e+01  9.9996354632773876e-01 -1.9885863415700655e-02  1.1632455981792499e-04  8.3991182532731699e+01
                         1.1632287875137528e-04  8.3973028043895170e+01  1.1632455981793182e-04  8.3991182532718568e+01  9.9996354877934912e-01 -1.9886182607863873e-02
2.500000000000000e-07  9.9993608406507251e-01 -4.9537343649821555e-02  2.8899074728160024e-04  8.5794926253562494e+01  2.8897355317572667e-04  8.5715548591656770e+01
                         2.8899074728160377e-04  8.5794926253536971e+01  9.9993638312908140e-01 -4.9538985462800479e-02  2.8896754245511419e-04  8.5760304134632619e+01
                         2.8897355317572028e-04  8.5715548591680090e+01  2.8896754245510801e-04  8.5760304134661155e+01  9.9993639366575671e-01 -4.9539853539255482e-02
5.000000000000001e-07  9.9985203018483559e-01 -9.8403587318562441e-02  5.7462839468236046e-04  8.5117683658158185e+01  5.7455891285659269e-04  8.4963560709318699e+01
                         5.7462839468236133e-04  8.5117683658170037e+01  9.9985319360424785e-01 -9.8412099963918781e-02  5.7454794856737776e-04  8.5052624347981862e+01
                         5.7455891285659432e-04  8.4963560709312404e+01  5.7454794856738145e-04  8.5052624347969356e+01  9.9985322212987393e-01 -9.8414129325978025e-02
7.500000000000000e-07  9.9972470372652145e-01 -1.4647270791631850e-01  8.5712516871218282e-04  8.3911828570620926e+01  8.5689899701411497e-04  8.3687027902928008e+01
                         8.5712516871218922e-04  8.3911828570622035e+01  9.9972723567466648e-01 -1.4649842918840103e-01  8.5693062599745678e-04  8.3818296181926215e+01
                         8.5689899701412494e-04  8.3687027902922537e+01  8.5693062599745732e-04  8.3818296181924808e+01  9.9972728508555264e-01 -1.4650188853330529e-01
9.765630000000001e-07  9.9957486658249417e-01 -1.8924681784139952e-01  1.1101941732034855e-03  8.2736913903477415e+01  1.1096969477713049e-03  8.2450864739847461e+01
                         1.1101941732035020e-03  8.2736913903481224e+01  9.9957902801234033e-01 -1.8930025311429985e-01  1.1098329693434621e-03  8.2618814419929691e+01
                         1.1096969477713086e-03  8.2450864739844477e+01  1.1098329693434760e-03  8.2618814419925855e+01  9.9957909757940822e-01 -1.8930519447071101e-01
1.953130000000000e-06  9.9860382829426897e-01 -3.6313769744608942e-01  2.1642190597060598e-03  7.7690455018343314e+01  2.1604858128817747e-03  7.7164732434712050e+01
                         2.1642190597060394e-03  7.7690455018343783e+01  9.9861822010721191e-01 -3.6349437102928178e-01  2.1622024726625799e-03  7.7476982432600522e+01
                         2.1604858128817595e-03  7.7164732434714381e+01  2.1622024726625781e-03  7.7476982432598888e+01  9.9861838089083321e-01 -3.6350695928994714e-01
3.906250000000000e-06  9.9553996205154105e-01 -6.4762900906241827e-01  4.0570267548882899e-03  6.8606514570997035e+01  4.0331169547788443e-03  6.7714174446311745e+01
                         4.0570267548884062e-03  6.8606514570993838e+01  9.9557901686266581e-01 -6.4969260471070700e-01  4.0458801863058171e-03  6.8250133308641438e+01
                         4.0331169547788781e-03  6.7714174446312086e+01  4.0458801863058006e-03  6.8250133308641992e+01  9.9557939487225844e-01 -6.4972362004269624e-01
7.812500000000000e-06  9.8799613308236611e-01 -9.6089799873602000e-01  6.9118189533339284e-03  5.4441650508897801e+01  6.8017890268888079e-03  5.3214792161554165e+01
                         6.9118189533338981e-03  5.4441650508898306e+01  9.8803988344066351e-01 -9.6898783285076706e-01  6.8641842897797954e-03  5.3962062713386395e+01
                         6.8017890268888426e-03  5.3214792161553973e+01  6.8641842897797919e-03  5.3962062713386430e+01  9.8804079113119858e-01 -9.6908296455486520e-01
1.562500000000000e-05  9.7665084972163896e-01 -1.0290144608842067e+00  9.9439001529778286e-03  3.7306250179658811e+01  9.6506851276676187e-03  3.6194032961984817e+01
                         9.9439001529778269e-03  3.7306250179658605e+01  9.7655646619956915e-01 -1.0446155997767299e+00  9.8216418375807746e-03  3.6880942378667648e+01
                         9.6506851276675996e-03  3.6194032961984583e+01  9.8216418375808145e-03  3.6880942378667406e+01  9.7655636842747184e-01 -1.0448908646239108e+00
3.125000000000000e-05  9.6744321053119298e-01 -7.8783436885284996e-01  1.1995503308994331e-02  2.2365738017284936e+01  1.1553554066515974e-02  2.1856489797366311e+01
                         1.1995503308994316e-02  2.2365738017284986e+01  9.6714280385521423e-01 -8.0093037158363567e-01  1.1812759834664038e-02  2.2172172190829802e+01
                         1.1553554066515967e-02  2.1856489797366496e+01  1.1812759834664151e-02  2.2172172190829688e+01  9.6713824447853614e-01 -8.0126641340193139e-01
6.250000000000000e-05  9.6269320497514221e-01 -4.9121287338990854e-01  1.2977628135534108e-02  1.2277083751108879e+01  1.2531857017832099e-02  1.2386111493225689e+01
                         1.2977628135534082e-02  1.2277083751108991e+01  9.6232381455275162e-01 -4.9517621978183196e-01  1.2789948703341424e-02  1.2321441110666436e+01
                         1.2531857017832156e-02  1.2386111493225627e+01  1.2789948703341441e-02  1.2321441110666482e+01  9.6231656010698963e-01 -4.9534664831253239e-01
1.250000000000000e-04  9.6063641692776658e-01 -2.7717101264619437e-01  1.3365643293731971e-02  6.3610328625925714e+00  1.3018025413096511e-02  6.7736523725047526e+00
                         1.3365643293732013e-02  6.3610328625925430e+00  9.6032875613309576e-01 -2.7463860812929308e-01  1.3215066601672393e-02  6.5325981133312938e+00
                         1.3018025413096500e-02  6.7736523725047926e+00  1.3215066601672352e-02  6.5325981133313018e+00  9.6032206694692923e-01 -2.7465558107689736e-01
2.500000000000000e-04  9.5974355731778738e-01 -1.4776921073512136e-01  1.3505468997744168e-02  3.1829580605677710e+00  1.3270547661992246e-02  3.5790245577100595e+00
                         1.3505468997744142e-02  3.1829580605677936e+00  9.5953245726760206e-01 -1.4378012708931784e-01  1.3401668413125076e-02  3.3536856602488845e+00
                         1.3270547661992401e-02  3.5790245577100097e+00  1.3401668413125187e-02  3.3536856602488676e+00  9.5952735372594855e-01 -1.4374356772834757e-01
5.000000000000000e-04  9.5933227601462834e-01 -7.6152620124369949e-02  1.3559433302286967e-02  1.5772268590392144e+00  1.3404341846280830e-02  1.8382672751248050e+00
                         1.3559433302286896e-02  1.5772268590391976e+00  9.5919323585865879e-01 -7.3194146051363554e-02  1.3490318152367429e-02  1.6922402669022854e+00
                         1.3404341846280927e-02  1.8382672751247595e+00  1.3490318152367455e-02  1.6922402669022676e+00  9.5918932749052410e-01 -7.3158407946154386e-02
1.000000000000000e-03  9.5913052873750204e-01 -3.9113617234727116e-02  1.3584188111953357e-02  7.8899015221028868e-01  1.3475766259360535e-02  9.4363664774940870e-01
                         1.3584188111953289e-02  7.8899015221027580e-01  9.5903364445366424e-01 -3.7276036574867902e-02  1.3535721876007153e-02  8.5792475413769198e-01
                         1.3475766259360523e-02  9.4363664774941136e-01  1.3535721876007191e-02  8.5792475413769831e-01  9.5903040968971376e-01 -3.7251246268328063e-02
