# MHz Z RI R 50
1.0E-6 4978007.001229962 -584517.9512448827 2489089.1654509166 -292267.9509457008 2488997.2762543927 -292267.27849263186
       2489089.1654509176 -292267.9509457009 4978040.309206211 -584534.6075920163 2489011.012743244 -292267.42576192075
       2488997.276254395 -292267.27849263215 2489011.0127432453 -292267.4257619209 4977900.088205956 -584524.6160645575
5.0E-6 3754149.8130532457 -2193638.677778326 1877140.2200307047 -1096839.092625381 1877049.1001176527 -1096835.9298387375
       1877140.2200307052 -1096839.0926253812 3754144.4889855543 -2193677.9372966285 1877062.6106795925 -1096836.5867795455
       1877049.1001176557 -1096835.9298387393 1877062.6106795953 -1096836.586779547 3754026.4590830593 -2193653.9961708477
1.0E-5 2132195.9300789065 -2481406.854551812 1066152.339955829 -1240719.6436739918 1066063.0543655155 -1240714.2022207384
       1066152.3399558293 -1240719.6436739918 2132166.489125082 -2481438.4036042653 1066076.0910545809 -1240715.181184702
       1066063.0543655162 -1240714.2022207396 1066076.0910545813 -1240715.1811847028 2132062.2731818324 -2481416.2684880616
2.5E-5 537505.0805408357 -1538584.0441903344 268798.24084425584 -769302.8588342404 268715.42111272307 -769294.4217844056
       268798.2408442558 -769302.8588342401 537462.2032995269 -1538596.8885665194 268727.41108141217 -769295.3405316317
       268715.4211127231 -769294.4217844057 268727.4110814123 -769295.3405316322 537372.6811800069 -1538579.2956819874
5.0E-5 152782.45168661853 -835618.310256675 76430.77583456598 -417816.8520781191 76357.19716027212 -417808.8096066784
       76430.775834566 -417816.85207811923 152741.49818065806 -835622.0239442133 76368.30669553821 -417809.0644554307
       76357.19716027219 -417808.8096066788 76368.30669553825 -417809.0644554311 152663.96102121632 -835608.9146473873
7.5E-5 73586.4697451945 -566414.7982061806 36829.48338721526 -283212.94328439643 36761.407755836255 -283207.112125525
       36829.48338721526 -283212.9432843964 73548.34342828607 -566416.2625910153 36772.16758617413 -283206.6699849443
       36761.407755836255 -283207.112125525 36772.16758617413 -283206.66998494434 73477.169709584 -566406.9603999143
1.0E-4 44978.81845472376 -427472.2445648592 22523.873554334405 -213740.13490533378 22458.74308280578 -213736.2942810811
       22523.87355433441 -213740.13490533386 44942.36226061462 -427473.00208814675 22469.426531374196 -213735.30230397
       22458.743082805788 -213736.2942810811 22469.4265313742 -213735.30230397 44874.56418469209 -427466.5096916093
2.5E-4 12770.400535107541 -172552.4992021236 6416.860632512016 -86276.9086297914 6355.865525085842 -86277.76169627713
       6416.860632512019 -86276.90862979148 12736.363236494873 -172552.43054050018 6367.036310864123 -86275.54603558804
       6355.865525085848 -86277.76169627723 6367.036310864129 -86275.54603558808 12673.6213364298 -172552.07399963512
5.0E-4 7481.968066858613 -86696.15871295205 3771.4031066980806 -43347.863579974604 3712.147206832109 -43349.70803207876
       3771.4031066980792 -43347.86357997459 7448.866277553332 -86695.69046356788 3723.6180504595773 -43347.392001613785
       3712.1472068321114 -43349.70803207879 3723.61805045958 -43347.39200161382 7388.345338275366 -86696.79178654343
7.5E-4 6258.2278972765835 -58004.191827589355 3158.694199767196 -29001.706942967878 3100.793735122422 -29003.610825106036
       3158.6941997671984 -29001.706942967878 6225.735402577954 -58003.593549888465 3112.205106915607 -29001.42866936455
       3100.7937351224255 -29003.610825106065 3112.205106915608 -29001.428669364577 6166.794827671384 -58004.91858232435
9.76563E-4 5761.765719761698 -44674.40261314077 2909.887539395038 -22336.760581097133 2852.9633886422694 -22338.622786033884
           2909.8875393950407 -22336.76058109714 5729.65887542355 -44673.755053556226 2864.252489733954 -22336.553547698873
           2852.96338864227 -22338.62278603387 2864.2524897339517 -22336.553547698848 5671.821202865745 -44675.12056189362
0.00195313 4984.579260166866 -22571.109138533295 2519.80436488728 -11285.138952036028 2465.498806103528 -11286.67709255557
           2519.8043648872763 -11285.138952036017 4953.3550737283 -22570.34052224663 2476.2839918193176 -11284.931810558002
           2465.4988061035237 -11286.677092555556 2476.283991819317 -11284.931810557999 4898.40426029482 -22571.53878074476
0.00390625 4546.2735108450415 -11476.648335400156 2299.2256338930206 -5738.221431038534 2247.5092175607847 -5738.955648310528
           2299.2256338930183 -5738.221431038532 4515.843618860308 -11475.589463836692 2257.6659071313416 -5737.6144177928445
           2247.509217560784 -5738.955648310526 2257.6659071313425 -5737.614417792846 4463.675918787742 -11476.090025884165
0.0078125 4248.294842471397 -5891.0876499684155 2148.7412916685125 -2946.134317261213 2099.820190165308 -2945.349390183727
          2148.7412916685093 -2946.1343172612087 4218.795254829839 -5889.427892936079 2109.244181325618 -2944.5780248549727
          2099.8201901653056 -2945.349390183725 2109.244181325619 -2944.5780248549745 4169.558089625595 -5888.489454237823
0.015625 4029.5752562561574 -3060.644372923503 2037.5712159171087 -1532.070299237616 1992.133838375562 -1528.8563512068456
         2037.5712159171096 -1532.0702992376168 4001.3812459885057 -3057.951362603714 2000.6117495734707 -1528.8767852019866
         1992.1338383755613 -1528.856351206845 2000.611749573469 -1528.8767852019855 3955.7155411174126 -3054.6460428644455
0.03125 3868.810574720404 -1608.8726986284712 1954.6154189985523 -807.7449491515553 1914.2446288813867 -801.3099975729742
        1954.6154189985514 -807.744949151555 3842.695795686249 -1604.626884537651 1921.3206707735808 -802.2487442362307
        1914.2446288813874 -801.3099975729747 1921.3206707735824 -802.2487442362313 3802.149514759497 -1598.1469722085067
0.0625 3755.1629802589587 -851.2070905529374 1894.0270242825088 -430.27772703388945 1861.1541548569508 -421.0323293263332
       1894.027024282508 -430.2777270338894 3732.5791208287696 -845.2150593149032 1866.2920558742946 -422.5749011224805
       1861.154154856949 -421.03232932633273 1866.2920558742935 -422.57490112248007 3699.5607970925366 -835.956778134686
0.125 3678.326601928001 -448.495697928717 1851.073464771897 -229.0995226503405 1827.2731833932883 -219.44617540801744
      1851.073464771897 -229.09952265034062 3660.95193918408 -441.8211602429257 1830.488835016716 -220.90125604296983
      1827.273183393287 -219.44617540801727 1830.4888350167148 -220.90125604296955 3637.023852046822 -432.1720537280215
0.25 3628.847321110724 -232.16966119481276 1822.334740516121 -119.7791624441455 1806.545706147295 -112.41177268241127
     1822.3347405161217 -119.77916244414558 3616.8882297726077 -226.76100972292326 1808.4569938727393 -113.38026690918178
     1806.545706147294 -112.41177268241117 1808.4569938727375 -113.38026690918161 3600.982218541368 -219.40045247047215
0.5 3598.9394914187174 -117.97624385911153 1804.6971678944303 -61.23820227224785 1794.2842806601182 -56.746144902743325
    1804.6971678944308 -61.23820227224777 3590.9368638480023 -114.56347177431252 1795.4787230767186 -57.28227763989117
    1794.2842806601172 -56.74614490274306 1795.4787230767174 -57.282277639890985 3580.4113627785173 -110.07456226155011
1.0 3581.780711948999 -60.19607513774821 1794.5577474241468 -31.384677849690824 1787.2684953683952 -28.81443535357538
    1794.557747424145 -31.384677849690785 3576.154077460773 -58.208965169939134 1788.0850681993134 -29.104532783203236
    1787.2684953683931 -28.814435353575345 1788.085068199313 -29.104532783203236 3568.7527905997545 -55.63943007198509
