# MHz Z RI R 50
9.76563E-4 2326.5496773909163 -16684.49074391789 1169.867299681197 -8342.338534825261 1153.8970161736702 -8341.840796310698
           1169.8672996811977 -8342.338534825263 2311.715653031497 -16683.844370711897 1156.894038758461 -8341.753147718957
           1153.897016173671 -8341.840796310702 1156.8940387584612 -8341.75314771896 2295.6723204046934 -16683.168980649734
0.00195313 1998.0184320201179 -8442.053910098719 1005.5003987550618 -4221.082462708847 989.9655494242023 -4220.899802547381
           1005.5003987550622 -4221.082462708848 1983.6878332207682 -8441.743197438302 992.9014856756885 -4220.732329218895
           989.9655494242025 -4220.899802547382 992.9014856756885 -4220.732329218894 1968.1672408657057 -8441.430708400929
0.00390625 1803.163390238588 -4303.447635104131 907.9909624584332 -2151.7560032148945 892.7962727840816 -2151.76163245694
           907.9909624584329 -2151.7560032148936 1789.2320880414436 -4303.321307333414 895.6800992048371 -2151.539450139112
           892.7962727840825 -2151.7616324569417 895.6800992048383 -2151.5394501391143 1774.112657280282 -4303.230984522509
0.0078125 1666.0424552330155 -2218.8187908138257 839.3409902072549 -1109.4527846157573 824.4630330594865 -1109.503835206768
          839.3409902072556 -1109.4527846157584 1652.475374647403 -2218.7251256381974 827.2964503051725 -1109.2575838903572
          824.4630330594867 -1109.5038352067681 827.2964503051719 -1109.2575838903563 1637.7148079220265 -2218.7069246054994
0.015625 1562.5532346112843 -1161.352255151127 787.4806896126361 -580.7848037679769 772.9510068852576 -580.6907055992459
         787.4806896126347 -580.784803767976 1549.3764784764319 -1161.106233275993 775.7313974215064 -580.4725741833422
         772.9510068852569 -580.6907055992455 775.7313974215069 -580.4725741833427 1534.990595014161 -1160.966097491766
0.03125 1483.7471990586407 -617.5762787466032 747.9068664025671 -309.0646452896205 733.8703315809068 -308.5060072302202
        747.9068664025664 -309.06464528962016 1471.105785878951 -616.9056514875754 736.5654579937531 -308.42353962516165
        733.8703315809065 -308.50600723022 736.5654579937535 -308.4235396251618 1457.226194881261 -616.32239928613
0.0625 1425.300339210645 -331.98521300119813 718.3502038413321 -166.59577162461596 705.2700445774168 -165.17114876677118
       718.3502038413316 -166.59577162461582 1413.6011298597416 -330.59499583163785 707.7373232831366 -165.36423676203134
       705.2700445774166 -165.17114876677118 707.7373232831369 -165.36423676203145 1400.6793485193648 -329.1683726076254
0.125 1383.691060500724 -178.69673978342794 696.8644973970687 -90.330155516529 685.5812844102937 -88.00754028400452
      696.8644973970685 -90.330155516529 1373.6064061287461 -176.59815611283233 687.5766349936843 -88.46570878093942
      685.5812844102928 -88.00754028400448 687.5766349936836 -88.4657087809394 1362.4662685243256 -174.29701335380182
0.25 1355.2314349875473 -95.25824957124597 681.6270248958091 -48.73070762297727 672.7760947895957 -46.19748472807909
     681.6270248958094 -48.730707622977285 1347.2684625046038 -93.01018689775043 674.1938204817654 -46.691988709548106
     672.776094789596 -46.197484728079075 674.1938204817653 -46.69198870954808 1338.5284355614408 -90.50908688711239
0.5 1336.904247453531 -49.992265081388936 671.4836142080075 -25.888458425261202 664.8748777217083 -23.88452189797765
    671.4836142080077 -25.8884584252612 1330.9118886238814 -48.207067631278896 665.8414372216719 -24.2416023685008
    664.8748777217094 -23.884521897977727 665.8414372216729 -24.24160236850089 1324.3821063246983 -46.229621874350585
1.0 1325.9382118633036 -26.330227910044574 665.2993875441647 -13.779876897631619 660.2552671563345 -12.419768703088524
    665.2993875441647 -13.779876897631613 1321.3384107739137 -25.10974449750702 660.9466913493294 -12.641737238885591
    660.2552671563345 -12.41976870308852 660.9466913493295 -12.641737238885593 1316.351737481981 -23.767119037192955
