# MHz Z RI R 50
9.76563E-4 5828.147003172113 -44679.85837836635 2940.8394393845347 -22341.468801462786 2883.434919407773 -22338.248161465835
           2940.839439384536 -22341.46880146279 5770.21990208411 -44675.35223977097 2886.398057645153 -22338.023072154563
           2883.4349194077736 -22338.248161465843 2886.3980576451527 -22338.023072154563 5714.024639185947 -44672.44152778343
0.00195313 5047.486074212509 -22575.385146493827 2549.4165057839978 -11289.01220246622 2494.571156348387 -11286.333796927318
           2549.4165057839973 -11289.012202466216 4992.688455979331 -22571.698924248936 2497.5037561715862 -11286.043789850886
           2494.5711563483856 -11286.33379692731 2497.503756171586 -11286.043789850884 4938.762713726556 -22569.341585448874
0.00390625 4606.35332841588 -11480.590540409134 2327.9375960085617 -5741.640825865125 2275.2310565606526 -5738.952829920517
           2327.9375960085613 -5741.640825865125 4554.117983086891 -11477.073358853819 2278.1238754162737 -5738.636768321924
           2275.2310565606526 -5738.952829920517 2278.123875416274 -5738.636768321923 4502.095491933548 -11474.697446803491
0.0078125 4305.634438697906 -5895.573058315897 2176.6400734943045 -2949.461377441062 2126.09166816411 -2946.0915925473355
          2176.6400734943036 -2949.4613774410604 4255.882091012397 -5891.518151769251 2128.934024367085 -2945.8042408016004
          2126.09166816411 -2946.091592547336 2128.9340243670854 -2945.804240801602 4205.818691064438 -5888.430248188608
0.015625 4083.7268980077565 -3066.6751801926102 2064.5156837301433 -1535.7194011623715 2016.5895615730296 -1530.8318655402875
         2064.5156837301433 -1535.7194011623715 4036.8363439011673 -3061.2645569742112 2019.3552300639012 -1530.663583881335
         2016.5895615730287 -1530.8318655402875 2019.3552300639008 -1530.6635838813347 3989.2393089224715 -3056.6055787558143
0.03125 3918.4819297598806 -1617.5666406029827 1980.1601833731352 -812.3120266251298 1936.0568661604445 -804.935471645308
        1980.1601833731352 -812.3120266251299 3875.5479706458104 -1609.8950755692063 1938.6460832607247 -805.0235312971124
        1936.0568661604445 -804.9354716453083 1938.6460832607247 -805.0235312971125 3831.6686039007664 -1602.6815617330326
0.0625 3797.7156093984795 -862.9650592946181 1916.9254405402892 -436.3396306592763 1879.045000146235 -426.1207578342277
       1916.9254405402864 -436.33963065927577 3760.9492339249427 -852.738469464599 1881.21407683626 -426.53641151193904
       1879.0450001462323 -426.1207578342272 1881.21407683626 -426.5364115119391 3723.2338664709773 -842.6267167806811
0.125 3710.7933320619622 -461.27693804195474 1869.2933792183233 -236.00239705577073 1840.3336203061801 -224.76860222487247
      1869.2933792183235 -236.00239705577073 3682.687181016168 -450.2266881283634 1841.8694360120162 -225.32582376205542
      1840.3336203061806 -224.7686022248729 1841.8694360120169 -225.32582376205588 3653.8539101377323 -439.0622909219572
0.25 3651.081979816311 -242.38209955223743 1835.1073746044653 -125.52627751913504 1815.2349012462007 -116.50483384915928
     1835.1073746044644 -125.52627751913484 3631.7756394489707 -233.55215452810145 1816.2138809288786 -116.94332678337827
     1815.2349012462003 -116.50483384915921 1816.213880928879 -116.94332678337832 3611.998138397832 -224.57037926935843
0.5 3613.7807702989253 -124.37228861265348 1813.2934628683902 -64.91967796345979 1799.9930411707837 -59.25512504873696
    1813.2934628683893 -64.91967796345962 3600.854343702452 -118.83307998573818 1800.6240013519302 -59.515798028403374
    1799.9930411707821 -59.255125048736865 1800.6240013519298 -59.51579802840344 3587.6266310081824 -113.18772952728334
1.0 3592.197782711254 -63.905716743514354 1800.6022521072784 -33.54422723451981 1791.2340179284022 -30.25409131387896
    1800.6022521072796 -33.544227234519774 3583.0960176401663 -60.688550691858055 1791.672066480195 -30.39932324464393
    1791.2340179284022 -30.254091313878956 1791.672066480194 -30.39932324464396 3573.7871852900525 -57.40756402119876
