# MHz Z RI R 50
9.76563E-4 2309.168037251605 -16684.25613236468 1167.198310042945 -8340.794322371112 1142.0495476091505 -8343.587447566139
           1167.1983100429447 -8340.794322371112 2300.3168030602405 -16683.81703597748 1150.3987217135789 -8341.97099482567
           1142.049547609151 -8343.58744756614 1150.3987217135793 -8341.970994825671 2275.679925952315 -16686.817244919806
0.00195313 1980.980464697717 -8442.101556682712 1002.6913443364823 -4219.733217730667 978.3103171071888 -4222.4657341152715
           1002.6913443364825 -4219.733217730668 1972.403601643643 -8441.802993382229 986.3983391356702 -4220.961386260772
           978.3103171071882 -4222.46573411527 986.3983391356696 -4220.961386260769 1948.4059637109606 -8444.703765651537
0.00390625 1786.399128294636 -4303.651949309196 904.9531142886614 -2150.621012993734 881.4208385486164 -2153.110687237349
           904.9531142886614 -2150.6210129937344 1778.0339371288399 -4303.444134779439 889.1775816389596 -2151.7781941798053
           881.420838548617 -2153.11068723735 889.1775816389601 -2151.778194179806 1754.7853869912312 -4306.074504404115
0.0078125 1649.5499523568926 -2219.025535536354 836.0446841553202 -1108.5716258437237 813.4428499238944 -1110.5200206455681
          836.0446841553195 -1108.5716258437228 1641.379262691045 -2218.8467883204307 820.819624681248 -1109.474853839799
          813.4428499238937 -1110.520020645567 820.8196246812477 -1109.4748538397985 1618.9815535030962 -2220.914097490934
0.015625 1546.3923634905816 -1161.3434795786034 783.8775435128161 -580.2201214733968 762.4233279307005 -581.1750213178128
         783.8775435128159 -580.2201214733967 1538.4291937423932 -1161.1144477482837 769.318367587865 -580.6020871684581
         762.4233279307009 -581.1750213178132 769.3183675878659 -580.6020871684586 1517.1152704896285 -1162.167191899304
0.03125 1468.1155797498636 -616.996131427909 743.8442711796905 -308.8189387601944 724.1609260564354 -308.21043735146344
        743.8442711796908 -308.8189387601944 1460.4148983060647 -616.5805730198293 730.2904797282537 -308.32597613595135
        724.1609260564362 -308.21043735146367 730.2904797282541 -308.32597613595163 1440.823214800956 -616.046603688529
0.0625 1410.7449176048885 -330.4126430223762 713.6900442274194 -166.3941768483656 696.9393430003299 -164.0298177846759
       713.6900442274203 -166.39417684836565 1403.4987788046715 -329.6052176271985 701.8189691845749 -164.82938112615798
       696.9393430003298 -164.0298177846758 701.818969184574 -164.8293811261578 1386.8074393135748 -327.2911294714912
0.125 1371.1440157107845 -176.12519237620845 691.958296819852 -89.74285413776718 679.0818613960611 -86.37330566093148
      691.958296819852 -89.74285413776717 1364.7819625432096 -174.85564239462607 682.4504564864704 -87.45002871942029
      679.0818613960607 -86.37330566093148 682.4504564864702 -87.45002871942029 1351.9458987535852 -171.5164911661222
0.25 1345.3849788818675 -92.45248721307482 677.2350387234986 -47.78517084669697 668.0708030947249 -44.649177539721975
     677.2350387234987 -47.78517084669701 1340.311074218908 -91.04604724713035 670.2024189779855 -45.54175612167595
     668.0708030947249 -44.649177539722025 670.2024189779853 -45.54175612167597 1331.174554360418 -87.92726279573509
0.5 1329.5461270193016 -47.76950164337757 667.9657281447053 -24.98615560482667 661.5248114032516 -22.76783077221269
    667.9657281447052 -24.98615560482668 1325.7169430069764 -46.63717245419277 662.8928588018352 -23.331699684237286
    661.5248114032516 -22.76783077221274 662.8928588018355 -23.33169968423733 1319.2948694804957 -44.428182173735266
1.0 1320.3180683779233 -24.819545929893273 662.5118027142641 -13.10764354269946 657.7658899834524 -11.70154975040273
    662.5118027142643 -13.10764354269949 1317.3770598443639 -24.041871916000712 658.714178444 -12.029111508845146
    657.7658899834521 -11.70154975040275 658.7141784439993 -12.029111508845133 1312.644619598802 -22.64094974937168
